
**** 03/09/12 02:03:31 ******* PSpice 16.3.0 (June 2009) ****** ID# 0 ********

 ** Profile: "SCHEMATIC1-time"  [ X:\PROGETTO_ELETTRONICA\STADIO_2\commonsource-pspicefiles\schematic1\time.sim ] 


 ****     CIRCUIT DESCRIPTION


******************************************************************************




** Creating circuit file "time.cir" 
** WARNING: THIS AUTOMATICALLY GENERATED FILE MAY BE OVERWRITTEN BY SUBSEQUENT SIMULATIONS

*Libraries: 
* Profile Libraries :
* Local Libraries :
.LIB "../../../commonsource-pspicefiles/schematic1/time/fairchild.lib" 
* From [PSPICE NETLIST] section of C:\Cadence\SPB_16.3\tools\PSpice\PSpice.ini file:
.lib "nom.lib" 

*Analysis directives: 
.TRAN  0 100us 0 
.PROBE V(alias(*)) I(alias(*)) W(alias(*)) D(alias(*)) NOISE(alias(*)) 
.INC "..\SCHEMATIC1.net" 



**** INCLUDING SCHEMATIC1.net ****
* source COMMONSOURCE
V_V5         N11644 0 80
R_R5         0 N11634  565 TC=0,0 
V_V6         N11522 0  
+SIN 20 0.3 30k 0 0 0
X_M5         N11654 N11522 N19535 BSS123/FAI
R_R6         N11654 N11644  3k TC=0,0 
I_I2         N19535 0 DC 0.03Adc  
C_C1         N11654 N11634  1  TC=0,0 

**** RESUMING time.cir ****
.END

**** 03/09/12 02:03:31 ******* PSpice 16.3.0 (June 2009) ****** ID# 0 ********

 ** Profile: "SCHEMATIC1-time"  [ X:\PROGETTO_ELETTRONICA\STADIO_2\commonsource-pspicefiles\schematic1\time.sim ] 


 ****     Diode MODEL PARAMETERS


******************************************************************************




               X_M5.DDS        X_M5.DBODY      X_M5.DGD        
          IS   10.000000E-15  140.000000E-15   10.000000E-15 
          BV  100.16                                         
          RS                     .04                         
          TT                  100.000000E-09                 
         CJO   23.000000E-12                   20.000000E-12 
          VJ     .8                              .4          
           M     .36                             .3          


**** 03/09/12 02:03:31 ******* PSpice 16.3.0 (June 2009) ****** ID# 0 ********

 ** Profile: "SCHEMATIC1-time"  [ X:\PROGETTO_ELETTRONICA\STADIO_2\commonsource-pspicefiles\schematic1\time.sim ] 


 ****     MOSFET MODEL PARAMETERS


******************************************************************************




               X_M5.DMOS       X_M5.INTER      
               NMOS            NMOS            
       LEVEL    3               1            
           L  100.000000E-06  100.000000E-06 
           W  100.000000E-06  100.000000E-06 
         VTO    1.295216        0            
          KP     .5676         10            
       GAMMA    0               0            
         PHI     .6              .6          
      LAMBDA    0               0            
          IS   10.000000E-15   10.000000E-15 
          JS    0               0            
          PB     .8              .8          
        PBSW     .8              .8          
          CJ    0               0            
        CJSW    0               0            
        CGSO    0               0            
        CGDO    0               0            
        CGBO    0               0            
         TOX  100.000000E-09    0            
          XJ    0               0            
       UCRIT   10.000000E+03   10.000000E+03 
        VMAX  220.000000E+03                 
       THETA     .086                        
      DIOMOD    1               1            
         VFB    0               0            
        LETA    0               0            
        WETA    0               0            
          U0    0               0            
        TEMP    0               0            
         VDD    5               5            
       XPART    0               0            


**** 03/09/12 02:03:31 ******* PSpice 16.3.0 (June 2009) ****** ID# 0 ********

 ** Profile: "SCHEMATIC1-time"  [ X:\PROGETTO_ELETTRONICA\STADIO_2\commonsource-pspicefiles\schematic1\time.sim ] 


 ****     INITIAL TRANSIENT SOLUTION       TEMPERATURE =   27.000 DEG C


******************************************************************************



 NODE   VOLTAGE     NODE   VOLTAGE     NODE   VOLTAGE     NODE   VOLTAGE


(N11522)   20.0000 (N11634)    0.0000 (N11644)   80.0000 (N11654)   -9.9910     

(N19535)  -10.0760 (X_M5.1)   20.0000 (X_M5.2)  -10.0690 (X_M5.3)  -10.0750     

(X_M5.4)  -10.0300 (X_M5.5)  -10.0760 (X_M5.6)  -10.0300 (X_M5.7)   20.0000     

(X_M5.8)  -70.0900 (X_M5.9)   80.0600 




    VOLTAGE SOURCE CURRENTS
    NAME         CURRENT

    V_V5        -3.000E-02
    V_V6        -3.003E-06

    TOTAL POWER DISSIPATION   2.40E+00  WATTS



          JOB CONCLUDED

**** 03/09/12 02:03:31 ******* PSpice 16.3.0 (June 2009) ****** ID# 0 ********

 ** Profile: "SCHEMATIC1-time"  [ X:\PROGETTO_ELETTRONICA\STADIO_2\commonsource-pspicefiles\schematic1\time.sim ] 


 ****     JOB STATISTICS SUMMARY


******************************************************************************



  Total job time (using Solver 1)   =         .32
