
**** 01/31/12 17:06:21 ******* PSpice 16.2.0 (Oct 2008) ******* ID# 0 ********

 ** Profile: "SCHEMATIC1-acsweep"  [ Y:\ORCAD\progetto\stadio_2\Commonsource-PSpiceFiles\SCHEMATIC1\acsweep.sim ] 


 ****     CIRCUIT DESCRIPTION


******************************************************************************




** Creating circuit file "acsweep.cir" 
** WARNING: THIS AUTOMATICALLY GENERATED FILE MAY BE OVERWRITTEN BY SUBSEQUENT SIMULATIONS

*Libraries: 
* Profile Libraries :
* Local Libraries :
.LIB "../../../commonsource-pspicefiles/schematic1/time/fairchild.lib" 
* From [PSPICE NETLIST] section of C:\OrCAD\OrCAD_16.2\tools\PSpice\PSpice.ini file:

*Analysis directives: 
.AC DEC 50 3.5k 21k
.PROBE V(alias(*)) I(alias(*)) W(alias(*)) D(alias(*)) NOISE(alias(*)) 
.INC "..\SCHEMATIC1.net" 



**** INCLUDING SCHEMATIC1.net ****
* source COMMONSOURCE
R_R1         N00318 N00328  10k TC=0,0 
V_V3         N00328 0 64Vdc
V_V4         N00253 0 DC 0Vdc AC 300mVac 
X_M1         N00318 N00143 0 2N7000/FAI
V_V2         N00143 N00253 4.15

**** RESUMING acsweep.cir ****
.END

**** 01/31/12 17:06:21 ******* PSpice 16.2.0 (Oct 2008) ******* ID# 0 ********

 ** Profile: "SCHEMATIC1-acsweep"  [ Y:\ORCAD\progetto\stadio_2\Commonsource-PSpiceFiles\SCHEMATIC1\acsweep.sim ] 


 ****     Diode MODEL PARAMETERS


******************************************************************************




               X_M1.DDS        X_M1.DBODY      X_M1.DGD        
          IS   10.000000E-15  140.000000E-15   10.000000E-15 
          BV   60.0864                                       
          RS                     .04                         
          TT                  100.000000E-09                 
         CJO   23.000000E-12                   85.000000E-12 
          VJ     .8                              .12         
           M     .36                             .53         


**** 01/31/12 17:06:21 ******* PSpice 16.2.0 (Oct 2008) ******* ID# 0 ********

 ** Profile: "SCHEMATIC1-acsweep"  [ Y:\ORCAD\progetto\stadio_2\Commonsource-PSpiceFiles\SCHEMATIC1\acsweep.sim ] 


 ****     MOSFET MODEL PARAMETERS


******************************************************************************




               X_M1.DMOS       X_M1.INTER      
               NMOS            NMOS            
       LEVEL    3               1            
           L  100.000000E-06  100.000000E-06 
           W  100.000000E-06  100.000000E-06 
         VTO    2.09328         0            
          KP     .35           10            
       GAMMA    0               0            
         PHI     .6              .6          
      LAMBDA    0               0            
          IS   10.000000E-15   10.000000E-15 
          JS    0               0            
          PB     .8              .8          
        PBSW     .8              .8          
          CJ    0               0            
        CJSW    0               0            
        CGSO    0               0            
        CGDO    0               0            
        CGBO    0               0            
         TOX  100.000000E-09    0            
          XJ    0               0            
       UCRIT   10.000000E+03   10.000000E+03 
        VMAX  220.000000E+03                 
       THETA     .086                        
      DIOMOD    1               1            
         VFB    0               0            
        LETA    0               0            
        WETA    0               0            
          U0    0               0            
        TEMP    0               0            
         VDD    5               5            
       XPART    0               0            


**** 01/31/12 17:06:21 ******* PSpice 16.2.0 (Oct 2008) ******* ID# 0 ********

 ** Profile: "SCHEMATIC1-acsweep"  [ Y:\ORCAD\progetto\stadio_2\Commonsource-PSpiceFiles\SCHEMATIC1\acsweep.sim ] 


 ****     SMALL SIGNAL BIAS SOLUTION       TEMPERATURE =   27.000 DEG C


******************************************************************************



 NODE   VOLTAGE     NODE   VOLTAGE     NODE   VOLTAGE     NODE   VOLTAGE


(N00143)    4.1500 (N00253)    0.0000 (N00318)     .0151 (N00328)   64.0000     

(X_M1.1)    4.1500 (X_M1.2)     .0106 (X_M1.3) 63.99E-06 (X_M1.4)     .0131     

(X_M1.5)    0.0000 (X_M1.6)     .0132 (X_M1.7)    4.1500 (X_M1.8)   -8.2605     

(X_M1.9)   12.4240 




    VOLTAGE SOURCE CURRENTS
    NAME         CURRENT

    V_V3        -6.399E-03
    V_V4        -4.137E-07
    V_V2        -4.137E-07

    TOTAL POWER DISSIPATION   4.10E-01  WATTS



          JOB CONCLUDED

**** 01/31/12 17:06:21 ******* PSpice 16.2.0 (Oct 2008) ******* ID# 0 ********

 ** Profile: "SCHEMATIC1-acsweep"  [ Y:\ORCAD\progetto\stadio_2\Commonsource-PSpiceFiles\SCHEMATIC1\acsweep.sim ] 


 ****     JOB STATISTICS SUMMARY


******************************************************************************



  Total job time (using Solver 1)   =         .14
