
**** 03/02/12 18:47:59 ******** PSpice Lite (June 2009) ******* ID# 10813 ****

 ** Profile: "SCHEMATIC1-V2_variabile"  [ X:\PROGETTO_ELETTRONICA\STADIO_2B\common_source-pspicefiles\schematic1\v2_variabile.sim ] 


 ****     CIRCUIT DESCRIPTION


******************************************************************************




** Creating circuit file "V2_variabile.cir" 
** WARNING: THIS AUTOMATICALLY GENERATED FILE MAY BE OVERWRITTEN BY SUBSEQUENT SIMULATIONS

*Libraries: 
* Profile Libraries :
.INC "X:\PROGETTO_ELETTRONICA\STADIO_2B\common_source-pspicefiles\schematic1\V2_variabile\V2_variabile_profile.inc" 
* Local Libraries :
* From [PSPICE NETLIST] section of C:\OrCAD\OrCAD_16.3_Demo\tools\PSpice\PSpice.ini file:

**** INCLUDING V2_variabile_profile.inc ****
.LIB    ".\fairchild.lib" 

**** RESUMING V2_variabile.cir ****
.lib "nomd.lib" 

*Analysis directives: 
.TRAN  0 0.3ms 0 
.PROBE V(alias(*)) I(alias(*)) W(alias(*)) D(alias(*)) NOISE(alias(*)) 
.INC "..\SCHEMATIC1.net" 



**** INCLUDING SCHEMATIC1.net ****
* source COMMON_SOURCE
X_M1         N00096 N00265 0 2N7000/FAI
V_V1         N00100 0 80
V_V2         N00265 0  
+SIN 0 3 3KHz 0 0 0
I_I1         N00100 N00096 DC 0.01Adc  
R_R1         0 N00096  1k TC=0,0 

**** RESUMING V2_variabile.cir ****
.END

**** 03/02/12 18:47:59 ******** PSpice Lite (June 2009) ******* ID# 10813 ****

 ** Profile: "SCHEMATIC1-V2_variabile"  [ X:\PROGETTO_ELETTRONICA\STADIO_2B\common_source-pspicefiles\schematic1\v2_variabile.sim ] 


 ****     Diode MODEL PARAMETERS


******************************************************************************




               X_M1.DDS        X_M1.DBODY      X_M1.DGD        
          IS   10.000000E-15  140.000000E-15   10.000000E-15 
          BV   60.0864                                       
          RS                     .04                         
          TT                  100.000000E-09                 
         CJO   23.000000E-12                   85.000000E-12 
          VJ     .8                              .12         
           M     .36                             .53         


**** 03/02/12 18:47:59 ******** PSpice Lite (June 2009) ******* ID# 10813 ****

 ** Profile: "SCHEMATIC1-V2_variabile"  [ X:\PROGETTO_ELETTRONICA\STADIO_2B\common_source-pspicefiles\schematic1\v2_variabile.sim ] 


 ****     MOSFET MODEL PARAMETERS


******************************************************************************




               X_M1.DMOS       X_M1.INTER      
               NMOS            NMOS            
       LEVEL    3               1            
           L  100.000000E-06  100.000000E-06 
           W  100.000000E-06  100.000000E-06 
         VTO    2.09328         0            
          KP     .35           10            
       GAMMA    0               0            
         PHI     .6              .6          
      LAMBDA    0               0            
          IS   10.000000E-15   10.000000E-15 
          JS    0               0            
          PB     .8              .8          
        PBSW     .8              .8          
          CJ    0               0            
        CJSW    0               0            
        CGSO    0               0            
        CGDO    0               0            
        CGBO    0               0            
         TOX  100.000000E-09    0            
          XJ    0               0            
       UCRIT   10.000000E+03   10.000000E+03 
        VMAX  220.000000E+03                 
       THETA     .086                        
      DIOMOD    1               1            
         VFB    0               0            
        LETA    0               0            
        WETA    0               0            
          U0    0               0            
        TEMP    0               0            
         VDD    5               5            
       XPART    0               0            


**** 03/02/12 18:47:59 ******** PSpice Lite (June 2009) ******* ID# 10813 ****

 ** Profile: "SCHEMATIC1-V2_variabile"  [ X:\PROGETTO_ELETTRONICA\STADIO_2B\common_source-pspicefiles\schematic1\v2_variabile.sim ] 


 ****     INITIAL TRANSIENT SOLUTION       TEMPERATURE =   27.000 DEG C


******************************************************************************



 NODE   VOLTAGE     NODE   VOLTAGE     NODE   VOLTAGE     NODE   VOLTAGE


(N00096)    9.9990 (N00100)   80.0000 (N00265)    0.0000 (X_M1.1) 999.9E-09     

(X_M1.2)    9.9990 (X_M1.3) 301.6E-15 (X_M1.4)    9.9990 (X_M1.5)    0.0000     

(X_M1.6) 1.005E-06 (X_M1.7)    9.9989 (X_M1.8)   19.9980 (X_M1.9)  -19.9980 




    VOLTAGE SOURCE CURRENTS
    NAME         CURRENT

    V_V1        -1.000E-02
    V_V2         9.999E-07

    TOTAL POWER DISSIPATION   8.00E-01  WATTS



          JOB CONCLUDED

**** 03/02/12 18:47:59 ******** PSpice Lite (June 2009) ******* ID# 10813 ****

 ** Profile: "SCHEMATIC1-V2_variabile"  [ X:\PROGETTO_ELETTRONICA\STADIO_2B\common_source-pspicefiles\schematic1\v2_variabile.sim ] 


 ****     JOB STATISTICS SUMMARY


******************************************************************************



  Total job time (using Solver 1)   =         .23
